
T3F04 000:004 SEGGER J-Link V6.16c Log File (0001ms, 0004ms total)
T3F04 000:004 DLL Compiled: Jun 16 2017 18:14:49 (0001ms, 0004ms total)
T3F04 000:004 Logging started @ 2018-03-13 15:21 (0001ms, 0004ms total)
T3F04 000:005 JLINK_SetWarnOutHandler(...) (0000ms, 0004ms total)
T3F04 000:005 JLINK_OpenEx(...)
Firmware: J-Link Lite-XMC4200 Rev.1 compiled Apr  5 2017 11:59:07
Hardware: V1.00
S/N: 591016523WEBSRV Webserver running on local port 19080 (0008ms, 0012ms total)
T3F04 000:005   returns O.K. (0008ms, 0012ms total)
T3F04 000:013 JLINK_GetEmuCaps()  returns 0xB8EA5A33 (0000ms, 0012ms total)
T3F04 000:013 JLINK_TIF_GetAvailable(...) (0000ms, 0012ms total)
T3F04 000:014 JLINK_SetErrorOutHandler(...) (0000ms, 0013ms total)
T3F04 000:014 JLINK_ExecCommand("ProjectFile = "C:\Workspaces\DAVE-4.3-64Bit\WS_2016_09_02\Assignment1\JLinkSettings.ini"", ...).   returns 0x00 (0123ms, 0136ms total)
T3F04 000:137 JLINK_ExecCommand("Device = XMC1100-Q024x0064", ...). Device "XMC1100-0064" selected.  returns 0x00 (0002ms, 0138ms total)
T3F04 000:139 JLINK_ExecCommand("DisableConnectionTimeout", ...).   returns 0x01 (0000ms, 0138ms total)
T3F04 000:139 JLINK_GetHardwareVersion()  returns 0x2710 (0000ms, 0138ms total)
T3F04 000:139 JLINK_GetDLLVersion()  returns 61603 (0000ms, 0138ms total)
T3F04 000:139 JLINK_GetFirmwareString(...) (0000ms, 0138ms total)
T3F04 000:139 JLINK_GetDLLVersion()  returns 61603 (0000ms, 0138ms total)
T3F04 000:139 JLINK_GetCompileDateTime() (0000ms, 0138ms total)
T3F04 000:139 JLINK_GetFirmwareString(...) (0000ms, 0138ms total)
T3F04 000:139 JLINK_GetHardwareVersion()  returns 0x2710 (0000ms, 0138ms total)
T3F04 000:139 JLINK_TIF_Select(JLINKARM_TIF_SWD)  returns 0x00 (0001ms, 0139ms total)
T3F04 000:140 JLINK_SetSpeed(5000) (0000ms, 0139ms total)
T3F04 000:140 JLINK_GetId()Performing XMC1000 connection sequence.Firmware of connected J-Link (S/N 591016523) is too old and does not support connect for this device. Debugging may not be reliableTrying to identify target via SPD >0x10B TIF>Could not identify target via SPD. Trying again via SWD. >0x10B TIF>Found SW-DP with ID 0x0BB11477 >0x0D TIF> >0x28 TIF> >0x0D TIF> >0x28 TIF> >0x0D TIF> >0x28 TIF> >0x0D TIF> >0x28 TIF> >0x0D TIF> >0x21 TIF> >0x0D TIF> >0x28 TIF>
Scanning APs, stopping at first AHB-AP found. >0x0D TIF> >0x28 TIF> >0x0D TIF> >0x21 TIF> >0x0D TIF> >0x21 TIF>AP[0] IDR: 0x04770021 (AHB-AP) >0x0D TIF> >0x28 TIF> >0x0D TIF> >0x21 TIF> >0x0D TIF> >0x21 TIF>AHB-AP ROM: 0xF0000000 (Base addr. of first ROM table) >0x0D TIF> >0x28 TIF> >0x0D TIF> >0x28 TIF> >0x0D TIF> >0x28 TIF> >0x0D TIF> >0x21 TIF> >0x0D TIF> >0x21 TIF> >0x0D TIF> >0x28 TIF> >0x0D TIF> >0x21 TIF> >0x0D TIF> >0x21 TIF>CPUID reg: 0x410CC200. Implementer code: 0x41 (ARM)
Found Cortex-M0 r0p0, Little endian. -- CPU_ReadMem(4 bytes @ 0xE000EDF0) -- CPU_ReadMem(4 bytes @ 0xE0002000)FPUnit: 4 code (BP) slots and 0 literal slots -- CPU_ReadMem(4 bytes @ 0xE000EDFC) -- CPU_ReadMem(4 bytes @ 0xE0001000) -- CPU_WriteMem(4 bytes @ 0xE0001000)CoreSight components:ROMTbl[0] @ F0000000 -- CPU_ReadMem(16 bytes @ 0xF0000000) -- CPU_ReadMem(16 bytes @ 0xE00FFFF0) -- CPU_ReadMem(16 bytes @ 0xE00FFFE0)ROMTbl[0][0]: E00FF000, CID: B105100D, PID: 000BB471 ROM TableROMTbl[1] @ E00FF000
 -- CPU_ReadMem(16 bytes @ 0xE00FF000) -- CPU_ReadMem(16 bytes @ 0xE000EFF0) -- CPU_ReadMem(16 bytes @ 0xE000EFE0)ROMTbl[1][0]: E000E000, CID: B105E00D, PID: 000BB008 SCS -- CPU_ReadMem(16 bytes @ 0xE0001FF0) -- CPU_ReadMem(16 bytes @ 0xE0001FE0)ROMTbl[1][1]: E0001000, CID: B105E00D, PID: 000BB00A DWT -- CPU_ReadMem(16 bytes @ 0xE0002FF0) -- CPU_ReadMem(16 bytes @ 0xE0002FE0)ROMTbl[1][2]: E0002000, CID: B105E00D, PID: 000BB00B FPB >0x0D TIF> >0x21 TIF>  returns 0x0BB11477 (0016ms, 0155ms total)
T3F04 000:156 JLINK_GetDLLVersion()  returns 61603 (0000ms, 0155ms total)
T3F04 000:156 JLINK_CORE_GetFound()  returns 0x60000FF (0000ms, 0155ms total)
T3F04 000:156 JLINK_GetDebugInfo(0x100 = JLINKARM_ROM_TABLE_ADDR_INDEX) -- Value=0xF0000000  returns 0x00 (0000ms, 0155ms total)
T3F04 000:156 JLINK_GetDebugInfo(0x100 = JLINKARM_ROM_TABLE_ADDR_INDEX) -- Value=0xF0000000  returns 0x00 (0001ms, 0156ms total)
T3F04 000:157 JLINK_GetDebugInfo(0x101 = JLINKARM_DEBUG_INFO_ETM_ADDR_INDEX) -- Value=0x00000000  returns 0x00 (0000ms, 0156ms total)
T3F04 000:157 JLINK_ReadMemEx(0xE0041FF0, 0x0010 Bytes, ..., Flags = 0x02000004) -- CPU_ReadMem(16 bytes @ 0xE0041FF0) - Data: 00 00 00 00 00 00 00 00 00 00 00 00 00 00 00 00  returns 0x10 (0000ms, 0156ms total)
T3F04 000:157 JLINK_GetDebugInfo(0x102 = JLINKARM_DEBUG_INFO_MTB_ADDR_INDEX) -- Value=0x00000000  returns 0x00 (0000ms, 0156ms total)
T3F04 000:157 JLINK_GetDebugInfo(0x103 = JLINKARM_DEBUG_INFO_TPIU_ADDR_INDEX) -- Value=0x00000000  returns 0x00 (0000ms, 0156ms total)
T3F04 000:157 JLINK_ReadMemEx(0xE0040FF0, 0x0010 Bytes, ..., Flags = 0x02000004) -- CPU_ReadMem(16 bytes @ 0xE0040FF0) - Data: 00 00 00 00 00 00 00 00 00 00 00 00 00 00 00 00  returns 0x10 (0001ms, 0157ms total)
T3F04 000:158 JLINK_GetDebugInfo(0x104 = JLINKARM_DEBUG_INFO_ITM_ADDR_INDEX) -- Value=0xE0000000  returns 0x00 (0000ms, 0157ms total)
T3F04 000:158 JLINK_GetDebugInfo(0x105 = JLINKARM_DEBUG_INFO_DWT_ADDR_INDEX) -- Value=0xE0001000  returns 0x00 (0000ms, 0157ms total)
T3F04 000:158 JLINK_GetDebugInfo(0x106 = JLINKARM_DEBUG_INFO_FPB_ADDR_INDEX) -- Value=0xE0002000  returns 0x00 (0000ms, 0157ms total)
T3F04 000:158 JLINK_GetDebugInfo(0x107 = JLINKARM_DEBUG_INFO_NVIC_ADDR_INDEX) -- Value=0xE000E000  returns 0x00 (0000ms, 0157ms total)
T3F04 000:158 JLINK_GetDebugInfo(0x10C = JLINKARM_DEBUG_INFO_DBG_ADDR_INDEX) -- Value=0xE000EDF0  returns 0x00 (0000ms, 0157ms total)
T3F04 000:158 JLINK_ReadMemU32(0xE000ED00, 0x0001 Items, ...) -- CPU_ReadMem(4 bytes @ 0xE000ED00) - Data: 00 C2 0C 41  returns 0x01 (0000ms, 0157ms total)
T3F04 000:158 JLINK_GetDebugInfo(0x10F = JLINKARM_DEBUG_INFO_HAS_CORTEX_M_SECURITY_EXT_INDEX) -- Value=0x00000000  returns 0x00 (0000ms, 0157ms total)
T3F04 000:158 JLINK_SetResetType(JLINKARM_CM3_RESET_TYPE_NORMAL)  returns JLINKARM_CM3_RESET_TYPE_NORMAL (0000ms, 0157ms total)
T3F04 000:158 JLINK_Reset()Performing XMC1000 reset -- CPU_ReadMem(4 bytes @ 0x10001004) -- CPU_WriteMem(4 bytes @ 0xE0002000) -- CPU_ReadMem(4 bytes @ 0xE0002008) -- CPU_WriteMem(4 bytes @ 0xE0002008) -- CPU_WriteMem(4 bytes @ 0xE000ED0C) -- CPU is running -- CPU_WriteMem(4 bytes @ 0xE0002008) -- CPU_WriteMem(4 bytes @ 0xE0002000) -- CPU_ReadMem(4 bytes @ 0xE000EDFC) -- CPU_ReadMem(4 bytes @ 0xE0001000) -- CPU_WriteMem(4 bytes @ 0xE0001000) (0033ms, 0190ms total)
T3F04 000:191 JLINK_ReadReg(R15 (PC))  returns 0x100010BC (0000ms, 0190ms total)
T3F04 000:191 JLINK_ReadReg(XPSR)  returns 0x61000000 (0000ms, 0190ms total)
T3F04 000:191 JLINK_Halt()  returns 0x00 (0000ms, 0190ms total)
T3F04 000:191 JLINK_ReadMemU32(0xE000EDF0, 0x0001 Items, ...) -- CPU_ReadMem(4 bytes @ 0xE000EDF0) - Data: 03 00 03 00  returns 0x01 (0001ms, 0191ms total)
T3F04 000:192 JLINK_WriteU32(0xE000EDF0, 0xA05F0003) -- CPU_WriteMem(4 bytes @ 0xE000EDF0)  returns 0x00 (0001ms, 0192ms total)
T3F04 000:193 JLINK_WriteU32(0xE000EDFC, 0x01000000) -- CPU_WriteMem(4 bytes @ 0xE000EDFC)  returns 0x00 (0000ms, 0192ms total)
T3F04 000:193 JLINK_GetHWStatus(...)  returns 0x00 (0001ms, 0193ms total)
T3F04 000:194 JLINK_GetNumBPUnits(Type = 0xFFFFFF00)  returns 0x04 (0000ms, 0193ms total)
T3F04 000:194 JLINK_GetNumBPUnits(Type = 0xF0)  returns 0x2000 (0000ms, 0193ms total)
T3F04 000:194 JLINK_GetNumWPUnits()  returns 0x02 (0000ms, 0193ms total)
T3F04 000:194 JLINK_GetSpeed()  returns 0xBB8 (0000ms, 0193ms total)
T3F04 000:194 JLINK_ReadMemU32(0xE000E004, 0x0001 Items, ...) -- CPU_ReadMem(4 bytes @ 0xE000E004) - Data: 00 00 00 00  returns 0x01 (0001ms, 0194ms total)
T3F04 000:195 JLINK_ReadReg(R15 (PC))  returns 0x100010BC (0000ms, 0194ms total)
T3F04 000:195 JLINK_ReadReg(XPSR)  returns 0x61000000 (0000ms, 0194ms total)
T3F04 000:298 JLINK_SetResetType(JLINKARM_CM3_RESET_TYPE_NORMAL)  returns JLINKARM_CM3_RESET_TYPE_NORMAL (0000ms, 0194ms total)
T3F04 000:298 JLINK_Reset()Performing XMC1000 reset -- CPU_ReadMem(4 bytes @ 0x10001004) -- CPU_WriteMem(4 bytes @ 0xE0002000) -- CPU_ReadMem(4 bytes @ 0xE0002008) -- CPU_WriteMem(4 bytes @ 0xE0002008) -- CPU_WriteMem(4 bytes @ 0xE000ED0C) -- CPU is running -- CPU_WriteMem(4 bytes @ 0xE0002008) -- CPU_WriteMem(4 bytes @ 0xE0002000) -- CPU_ReadMem(4 bytes @ 0xE000EDFC) -- CPU_ReadMem(4 bytes @ 0xE0001000) -- CPU_WriteMem(4 bytes @ 0xE0001000) (0031ms, 0225ms total)
T3F04 000:330 JLINK_ReadReg(R15 (PC))  returns 0x100010BC (0000ms, 0225ms total)
T3F04 000:330 JLINK_ReadReg(XPSR)  returns 0x61000000 (0000ms, 0225ms total)
T3F04 000:485 JLINK_ReadMemEx(0x48040100, 0x0008 Bytes, ..., Flags = 0x02000004) -- CPU_ReadMem(8 bytes @ 0x48040100) - Data: 00 00 00 00 00 00 00 00  returns 0x08 (0000ms, 0225ms total)
T3F04 000:486 JLINK_ReadMemEx(0x48040100, 0x0004 Bytes, ..., Flags = 0x02000004) -- CPU_ReadMem(4 bytes @ 0x48040100) - Data: 00 00 00 00  returns 0x04 (0000ms, 0226ms total)
T3F04 000:486 JLINK_ReadMemEx(0x48040104, 0x0004 Bytes, ..., Flags = 0x02000004) -- CPU_ReadMem(4 bytes @ 0x48040104) - Data: 00 00 00 00  returns 0x04 (0000ms, 0226ms total)
T3F04 000:486 JLINK_ReadMemEx(0x48040108, 0x0004 Bytes, ..., Flags = 0x02000004) -- CPU_ReadMem(4 bytes @ 0x48040108) - Data: 00 00 00 00  returns 0x04 (0001ms, 0227ms total)
T3F04 000:487 JLINK_ReadMemEx(0x48040108, 0x0004 Bytes, ..., Flags = 0x02000004) -- CPU_ReadMem(4 bytes @ 0x48040108) - Data: 00 00 00 00  returns 0x04 (0000ms, 0227ms total)
T3F04 000:487 JLINK_ReadMemEx(0x48040114, 0x0028 Bytes, ..., Flags = 0x02000004) -- CPU_ReadMem(40 bytes @ 0x48040114) - Data: 00 00 00 00 00 00 00 00 00 00 00 00 00 00 00 00 ...  returns 0x28 (0001ms, 0228ms total)
T3F04 000:488 JLINK_ReadMemEx(0x48040114, 0x0004 Bytes, ..., Flags = 0x02000004) -- CPU_ReadMem(4 bytes @ 0x48040114) - Data: 00 00 00 00  returns 0x04 (0000ms, 0228ms total)
T3F04 000:488 JLINK_ReadMemEx(0x48040118, 0x0004 Bytes, ..., Flags = 0x02000004) -- CPU_ReadMem(4 bytes @ 0x48040118) - Data: 00 00 00 00  returns 0x04 (0000ms, 0228ms total)
T3F04 000:488 JLINK_ReadMemEx(0x4804011C, 0x0004 Bytes, ..., Flags = 0x02000004) -- CPU_ReadMem(4 bytes @ 0x4804011C) - Data: 00 00 00 00  returns 0x04 (0001ms, 0229ms total)
T3F04 000:489 JLINK_ReadMemEx(0x48040120, 0x0004 Bytes, ..., Flags = 0x02000004) -- CPU_ReadMem(4 bytes @ 0x48040120) - Data: 00 00 00 00  returns 0x04 (0000ms, 0229ms total)
T3F04 000:489 JLINK_ReadMemEx(0x48040124, 0x0004 Bytes, ..., Flags = 0x02000004) -- CPU_ReadMem(4 bytes @ 0x48040124) - Data: 00 00 00 00  returns 0x04 (0000ms, 0229ms total)
T3F04 000:489 JLINK_ReadMemEx(0x48040128, 0x0004 Bytes, ..., Flags = 0x02000004) -- CPU_ReadMem(4 bytes @ 0x48040128) - Data: 00 00 00 00  returns 0x04 (0001ms, 0230ms total)
T3F04 000:490 JLINK_ReadMemEx(0x4804012C, 0x0004 Bytes, ..., Flags = 0x02000004) -- CPU_ReadMem(4 bytes @ 0x4804012C) - Data: 00 00 00 00  returns 0x04 (0000ms, 0230ms total)
T3F04 000:490 JLINK_ReadMemEx(0x48040130, 0x0004 Bytes, ..., Flags = 0x02000004) -- CPU_ReadMem(4 bytes @ 0x48040130) - Data: 00 00 00 00  returns 0x04 (0000ms, 0230ms total)
T3F04 000:490 JLINK_ReadMemEx(0x48040134, 0x0004 Bytes, ..., Flags = 0x02000004) -- CPU_ReadMem(4 bytes @ 0x48040134) - Data: 00 00 00 00  returns 0x04 (0001ms, 0231ms total)
T3F04 000:491 JLINK_ReadMemEx(0x48040138, 0x0004 Bytes, ..., Flags = 0x02000004) -- CPU_ReadMem(4 bytes @ 0x48040138) - Data: 00 00 00 00  returns 0x04 (0000ms, 0231ms total)
T3F04 000:491 JLINK_ReadMemEx(0x4804013C, 0x0004 Bytes, ..., Flags = 0x02000004) -- CPU_ReadMem(4 bytes @ 0x4804013C) - Data: 00 00 00 00  returns 0x04 (0001ms, 0232ms total)
T3F04 000:492 JLINK_ReadMemEx(0x4804013C, 0x0004 Bytes, ..., Flags = 0x02000004) -- CPU_ReadMem(4 bytes @ 0x4804013C) - Data: 00 00 00 00  returns 0x04 (0000ms, 0232ms total)
T3F04 000:492 JLINK_ReadMemEx(0x48040170, 0x0004 Bytes, ..., Flags = 0x02000004) -- CPU_ReadMem(4 bytes @ 0x48040170) - Data: 00 00 00 00  returns 0x04 (0000ms, 0232ms total)
T3F04 000:492 JLINK_ReadMemEx(0x48040170, 0x0004 Bytes, ..., Flags = 0x02000004) -- CPU_ReadMem(4 bytes @ 0x48040170) - Data: 00 00 00 00  returns 0x04 (0001ms, 0233ms total)
T3F04 000:493 JLINK_ReadMemEx(0x480401A0, 0x0008 Bytes, ..., Flags = 0x02000004) -- CPU_ReadMem(8 bytes @ 0x480401A0) - Data: 00 00 00 00 00 00 00 00  returns 0x08 (0000ms, 0233ms total)
T3F04 000:493 JLINK_ReadMemEx(0x480401A0, 0x0004 Bytes, ..., Flags = 0x02000004) -- CPU_ReadMem(4 bytes @ 0x480401A0) - Data: 00 00 00 00  returns 0x04 (0000ms, 0233ms total)
T3F04 000:493 JLINK_ReadMemEx(0x480401A4, 0x0004 Bytes, ..., Flags = 0x02000004) -- CPU_ReadMem(4 bytes @ 0x480401A4) - Data: 00 00 00 00  returns 0x04 (0001ms, 0234ms total)
T3F04 000:494 JLINK_ReadMemEx(0x480401A8, 0x0004 Bytes, ..., Flags = 0x02000004) -- CPU_ReadMem(4 bytes @ 0x480401A8) - Data: 00 00 00 00  returns 0x04 (0000ms, 0234ms total)
T3F04 000:494 JLINK_ReadMemEx(0x480401A8, 0x0004 Bytes, ..., Flags = 0x02000004) -- CPU_ReadMem(4 bytes @ 0x480401A8) - Data: 00 00 00 00  returns 0x04 (0000ms, 0234ms total)
T3F04 001:941 JLINK_ReadReg(R0)  returns 0x20000868 (0001ms, 0235ms total)
T3F04 001:942 JLINK_ReadReg(R1)  returns 0x100010BD (0000ms, 0235ms total)
T3F04 001:942 JLINK_ReadReg(R2)  returns 0x00000008 (0000ms, 0235ms total)
T3F04 001:942 JLINK_ReadReg(R3)  returns 0x00000006 (0000ms, 0235ms total)
T3F04 001:942 JLINK_ReadReg(R4)  returns 0x40010000 (0000ms, 0235ms total)
T3F04 001:942 JLINK_ReadReg(R5)  returns 0x100010BD (0000ms, 0235ms total)
T3F04 001:942 JLINK_ReadReg(R6)  returns 0x10001000 (0000ms, 0235ms total)
T3F04 001:942 JLINK_ReadReg(R7)  returns 0xFFFFFFFF (0000ms, 0235ms total)
T3F04 001:942 JLINK_ReadReg(R8)  returns 0x00000000 (0000ms, 0235ms total)
T3F04 001:942 JLINK_ReadReg(R9)  returns 0x20000098 (0000ms, 0235ms total)
T3F04 001:942 JLINK_ReadReg(R10)  returns 0x10001E68 (0000ms, 0235ms total)
T3F04 001:942 JLINK_ReadReg(R11)  returns 0x10001E68 (0000ms, 0235ms total)
T3F04 001:942 JLINK_ReadReg(R12)  returns 0x00000000 (0000ms, 0235ms total)
T3F04 001:942 JLINK_ReadReg(R13 (SP))  returns 0x20000868 (0000ms, 0235ms total)
T3F04 001:942 JLINK_ReadReg(R14)  returns 0x00000871 (0000ms, 0235ms total)
T3F04 001:942 JLINK_ReadReg(R15 (PC))  returns 0x100010BC (0000ms, 0235ms total)
T3F04 001:942 JLINK_ReadReg(XPSR)  returns 0x61000000 (0000ms, 0235ms total)
T3F04 001:942 JLINK_ReadReg(MSP)  returns 0x20000868 (0000ms, 0235ms total)
T3F04 001:942 JLINK_ReadReg(PSP)  returns 0x20001000 (0000ms, 0235ms total)
T3F04 001:942 JLINK_ReadReg(CFBP)  returns 0x00000000 (0000ms, 0235ms total)
T3F04 001:942 JLINK_ReadMemEx(0x48040100, 0x0008 Bytes, ..., Flags = 0x02000004) -- CPU_ReadMem(8 bytes @ 0x48040100) - Data: 00 00 00 00 00 00 00 00  returns 0x08 (0001ms, 0236ms total)
T3F04 001:943 JLINK_ReadMemEx(0x48040100, 0x0004 Bytes, ..., Flags = 0x02000004) -- CPU_ReadMem(4 bytes @ 0x48040100) - Data: 00 00 00 00  returns 0x04 (0000ms, 0236ms total)
T3F04 001:943 JLINK_ReadMemEx(0x48040104, 0x0004 Bytes, ..., Flags = 0x02000004) -- CPU_ReadMem(4 bytes @ 0x48040104) - Data: 00 00 00 00  returns 0x04 (0001ms, 0237ms total)
T3F04 001:944 JLINK_ReadMemEx(0x48040108, 0x0004 Bytes, ..., Flags = 0x02000004) -- CPU_ReadMem(4 bytes @ 0x48040108) - Data: 00 00 00 00  returns 0x04 (0000ms, 0237ms total)
T3F04 001:944 JLINK_ReadMemEx(0x48040108, 0x0004 Bytes, ..., Flags = 0x02000004) -- CPU_ReadMem(4 bytes @ 0x48040108) - Data: 00 00 00 00  returns 0x04 (0001ms, 0238ms total)
T3F04 001:945 JLINK_ReadMemEx(0x48040114, 0x0028 Bytes, ..., Flags = 0x02000004) -- CPU_ReadMem(40 bytes @ 0x48040114) - Data: 00 00 00 00 00 00 00 00 00 00 00 00 00 00 00 00 ...  returns 0x28 (0000ms, 0238ms total)
T3F04 001:945 JLINK_ReadMemEx(0x48040114, 0x0004 Bytes, ..., Flags = 0x02000004) -- CPU_ReadMem(4 bytes @ 0x48040114) - Data: 00 00 00 00  returns 0x04 (0001ms, 0239ms total)
T3F04 001:946 JLINK_ReadMemEx(0x48040118, 0x0004 Bytes, ..., Flags = 0x02000004) -- CPU_ReadMem(4 bytes @ 0x48040118) - Data: 00 00 00 00  returns 0x04 (0000ms, 0239ms total)
T3F04 001:946 JLINK_ReadMemEx(0x4804011C, 0x0004 Bytes, ..., Flags = 0x02000004) -- CPU_ReadMem(4 bytes @ 0x4804011C) - Data: 00 00 00 00  returns 0x04 (0001ms, 0240ms total)
T3F04 001:947 JLINK_ReadMemEx(0x48040120, 0x0004 Bytes, ..., Flags = 0x02000004) -- CPU_ReadMem(4 bytes @ 0x48040120) - Data: 00 00 00 00  returns 0x04 (0000ms, 0240ms total)
T3F04 001:947 JLINK_ReadMemEx(0x48040124, 0x0004 Bytes, ..., Flags = 0x02000004) -- CPU_ReadMem(4 bytes @ 0x48040124) - Data: 00 00 00 00  returns 0x04 (0001ms, 0241ms total)
T3F04 001:948 JLINK_ReadMemEx(0x48040128, 0x0004 Bytes, ..., Flags = 0x02000004) -- CPU_ReadMem(4 bytes @ 0x48040128) - Data: 00 00 00 00  returns 0x04 (0000ms, 0241ms total)
T3F04 001:948 JLINK_ReadMemEx(0x4804012C, 0x0004 Bytes, ..., Flags = 0x02000004) -- CPU_ReadMem(4 bytes @ 0x4804012C) - Data: 00 00 00 00  returns 0x04 (0001ms, 0242ms total)
T3F04 001:949 JLINK_ReadMemEx(0x48040130, 0x0004 Bytes, ..., Flags = 0x02000004) -- CPU_ReadMem(4 bytes @ 0x48040130) - Data: 00 00 00 00  returns 0x04 (0000ms, 0242ms total)
T3F04 001:949 JLINK_ReadMemEx(0x48040134, 0x0004 Bytes, ..., Flags = 0x02000004) -- CPU_ReadMem(4 bytes @ 0x48040134) - Data: 00 00 00 00  returns 0x04 (0001ms, 0243ms total)
T3F04 001:950 JLINK_ReadMemEx(0x48040138, 0x0004 Bytes, ..., Flags = 0x02000004) -- CPU_ReadMem(4 bytes @ 0x48040138) - Data: 00 00 00 00  returns 0x04 (0000ms, 0243ms total)
T3F04 001:950 JLINK_ReadMemEx(0x4804013C, 0x0004 Bytes, ..., Flags = 0x02000004) -- CPU_ReadMem(4 bytes @ 0x4804013C) - Data: 00 00 00 00  returns 0x04 (0001ms, 0244ms total)
T3F04 001:951 JLINK_ReadMemEx(0x4804013C, 0x0004 Bytes, ..., Flags = 0x02000004) -- CPU_ReadMem(4 bytes @ 0x4804013C) - Data: 00 00 00 00  returns 0x04 (0000ms, 0244ms total)
T3F04 001:951 JLINK_ReadMemEx(0x48040170, 0x0004 Bytes, ..., Flags = 0x02000004) -- CPU_ReadMem(4 bytes @ 0x48040170) - Data: 00 00 00 00  returns 0x04 (0001ms, 0245ms total)
T3F04 001:952 JLINK_ReadMemEx(0x48040170, 0x0004 Bytes, ..., Flags = 0x02000004) -- CPU_ReadMem(4 bytes @ 0x48040170) - Data: 00 00 00 00  returns 0x04 (0000ms, 0245ms total)
T3F04 001:952 JLINK_ReadMemEx(0x480401A0, 0x0008 Bytes, ..., Flags = 0x02000004) -- CPU_ReadMem(8 bytes @ 0x480401A0) - Data: 00 00 00 00 00 00 00 00  returns 0x08 (0001ms, 0246ms total)
T3F04 001:953 JLINK_ReadMemEx(0x480401A0, 0x0004 Bytes, ..., Flags = 0x02000004) -- CPU_ReadMem(4 bytes @ 0x480401A0) - Data: 00 00 00 00  returns 0x04 (0000ms, 0246ms total)
T3F04 001:953 JLINK_ReadMemEx(0x480401A4, 0x0004 Bytes, ..., Flags = 0x02000004) -- CPU_ReadMem(4 bytes @ 0x480401A4) - Data: 00 00 00 00  returns 0x04 (0001ms, 0247ms total)
T3F04 001:954 JLINK_ReadMemEx(0x480401A8, 0x0004 Bytes, ..., Flags = 0x02000004) -- CPU_ReadMem(4 bytes @ 0x480401A8) - Data: 00 00 00 00  returns 0x04 (0000ms, 0247ms total)
T3F04 001:954 JLINK_ReadMemEx(0x480401A8, 0x0004 Bytes, ..., Flags = 0x02000004) -- CPU_ReadMem(4 bytes @ 0x480401A8) - Data: 00 00 00 00  returns 0x04 (0001ms, 0248ms total)
T37E8 004:006 JLINK_ReadMemEx(0x100010BC, 0x0002 Bytes, ..., Flags = 0x02000000) -- CPU_ReadMem(64 bytes @ 0x10001080) -- Updating C cache (64 bytes @ 0x10001080) -- Read from C cache (2 bytes @ 0x100010BC) - Data: 08 49  returns 0x02 (0001ms, 0249ms total)
T37E8 004:007 JLINK_Go() -- CPU_ReadMem(4 bytes @ 0xE0001000) -- CPU_WriteMem(4 bytes @ 0xE0001000) -- CPU_WriteMem(4 bytes @ 0xE0001004) (0003ms, 0252ms total)
T37E8 004:110 JLINK_IsHalted()  returns FALSE (0001ms, 0253ms total)
T37E8 004:212 JLINK_IsHalted()  returns FALSE (0000ms, 0252ms total)
T37E8 004:313 JLINK_IsHalted()  returns FALSE (0000ms, 0252ms total)
T37E8 004:413 JLINK_IsHalted()  returns FALSE (0001ms, 0253ms total)
T37E8 004:514 JLINK_IsHalted()  returns FALSE (0001ms, 0253ms total)
T3F04 004:615 JLINK_ReadMemEx(0x48040100, 0x0008 Bytes, ..., Flags = 0x02000004) -- CPU_ReadMem(8 bytes @ 0x48040100) - Data: 00 00 00 00 00 00 00 00  returns 0x08 (0001ms, 0253ms total)
T3F04 004:616 JLINK_ReadMemEx(0x48040100, 0x0004 Bytes, ..., Flags = 0x02000004) -- CPU_ReadMem(4 bytes @ 0x48040100) - Data: 00 00 00 00  returns 0x04 (0001ms, 0254ms total)
T3F04 004:617 JLINK_ReadMemEx(0x48040104, 0x0004 Bytes, ..., Flags = 0x02000004) -- CPU_ReadMem(4 bytes @ 0x48040104) - Data: 00 00 00 00  returns 0x04 (0001ms, 0255ms total)
T3F04 004:618 JLINK_ReadMemEx(0x48040108, 0x0004 Bytes, ..., Flags = 0x02000004) -- CPU_ReadMem(4 bytes @ 0x48040108) - Data: 01 00 00 00  returns 0x04 (0000ms, 0255ms total)
T3F04 004:618 JLINK_ReadMemEx(0x48040108, 0x0004 Bytes, ..., Flags = 0x02000004) -- CPU_ReadMem(4 bytes @ 0x48040108) - Data: 01 00 00 00  returns 0x04 (0001ms, 0256ms total)
T3F04 004:619 JLINK_ReadMemEx(0x48040114, 0x0028 Bytes, ..., Flags = 0x02000004) -- CPU_ReadMem(40 bytes @ 0x48040114) - Data: 00 00 00 00 00 00 00 00 00 00 00 00 00 00 00 00 ...  returns 0x28 (0001ms, 0257ms total)
T3F04 004:620 JLINK_ReadMemEx(0x48040114, 0x0004 Bytes, ..., Flags = 0x02000004) -- CPU_ReadMem(4 bytes @ 0x48040114) - Data: 00 00 00 00  returns 0x04 (0000ms, 0257ms total)
T3F04 004:620 JLINK_ReadMemEx(0x48040118, 0x0004 Bytes, ..., Flags = 0x02000004) -- CPU_ReadMem(4 bytes @ 0x48040118) - Data: 00 00 00 00  returns 0x04 (0001ms, 0258ms total)
T3F04 004:621 JLINK_ReadMemEx(0x4804011C, 0x0004 Bytes, ..., Flags = 0x02000004) -- CPU_ReadMem(4 bytes @ 0x4804011C) - Data: 00 00 00 00  returns 0x04 (0001ms, 0259ms total)
T3F04 004:622 JLINK_ReadMemEx(0x48040120, 0x0004 Bytes, ..., Flags = 0x02000004) -- CPU_ReadMem(4 bytes @ 0x48040120) - Data: 00 00 00 00  returns 0x04 (0000ms, 0259ms total)
T3F04 004:623 JLINK_ReadMemEx(0x48040124, 0x0004 Bytes, ..., Flags = 0x02000004) -- CPU_ReadMem(4 bytes @ 0x48040124) - Data: 0A 00 00 00  returns 0x04 (0000ms, 0259ms total)
T3F04 004:623 JLINK_ReadMemEx(0x48040128, 0x0004 Bytes, ..., Flags = 0x02000004) -- CPU_ReadMem(4 bytes @ 0x48040128) - Data: 00 0A 00 00  returns 0x04 (0001ms, 0260ms total)
T3F04 004:624 JLINK_ReadMemEx(0x4804012C, 0x0004 Bytes, ..., Flags = 0x02000004) -- CPU_ReadMem(4 bytes @ 0x4804012C) - Data: 00 00 00 00  returns 0x04 (0000ms, 0260ms total)
T3F04 004:624 JLINK_ReadMemEx(0x48040130, 0x0004 Bytes, ..., Flags = 0x02000004) -- CPU_ReadMem(4 bytes @ 0x48040130) - Data: 23 F4 00 00  returns 0x04 (0001ms, 0261ms total)
T3F04 004:625 JLINK_ReadMemEx(0x48040134, 0x0004 Bytes, ..., Flags = 0x02000004) -- CPU_ReadMem(4 bytes @ 0x48040134) - Data: 23 F4 00 00  returns 0x04 (0001ms, 0262ms total)
T3F04 004:626 JLINK_ReadMemEx(0x48040138, 0x0004 Bytes, ..., Flags = 0x02000004) -- CPU_ReadMem(4 bytes @ 0x48040138) - Data: 00 00 00 00  returns 0x04 (0000ms, 0262ms total)
T3F04 004:626 JLINK_ReadMemEx(0x4804013C, 0x0004 Bytes, ..., Flags = 0x02000004) -- CPU_ReadMem(4 bytes @ 0x4804013C) - Data: 00 00 00 00  returns 0x04 (0001ms, 0263ms total)
T3F04 004:627 JLINK_ReadMemEx(0x4804013C, 0x0004 Bytes, ..., Flags = 0x02000004) -- CPU_ReadMem(4 bytes @ 0x4804013C) - Data: 00 00 00 00  returns 0x04 (0001ms, 0264ms total)
T3F04 004:628 JLINK_ReadMemEx(0x48040170, 0x0004 Bytes, ..., Flags = 0x02000004) -- CPU_ReadMem(4 bytes @ 0x48040170) - Data: 4E 99 00 00  returns 0x04 (0001ms, 0265ms total)
T3F04 004:629 JLINK_ReadMemEx(0x48040170, 0x0004 Bytes, ..., Flags = 0x02000004) -- CPU_ReadMem(4 bytes @ 0x48040170) - Data: 76 99 00 00  returns 0x04 (0000ms, 0265ms total)
T3F04 004:629 JLINK_ReadMemEx(0x480401A0, 0x0008 Bytes, ..., Flags = 0x02000004) -- CPU_ReadMem(8 bytes @ 0x480401A0) - Data: 04 00 00 00 01 00 00 00  returns 0x08 (0001ms, 0266ms total)
T3F04 004:630 JLINK_ReadMemEx(0x480401A0, 0x0004 Bytes, ..., Flags = 0x02000004) -- CPU_ReadMem(4 bytes @ 0x480401A0) - Data: 04 00 00 00  returns 0x04 (0000ms, 0266ms total)
T3F04 004:630 JLINK_ReadMemEx(0x480401A4, 0x0004 Bytes, ..., Flags = 0x02000004) -- CPU_ReadMem(4 bytes @ 0x480401A4) - Data: 01 00 00 00  returns 0x04 (0001ms, 0267ms total)
T3F04 004:631 JLINK_ReadMemEx(0x480401A8, 0x0004 Bytes, ..., Flags = 0x02000004) -- CPU_ReadMem(4 bytes @ 0x480401A8) - Data: 00 00 00 00  returns 0x04 (0001ms, 0268ms total)
T3F04 004:632 JLINK_ReadMemEx(0x480401A8, 0x0004 Bytes, ..., Flags = 0x02000004) -- CPU_ReadMem(4 bytes @ 0x480401A8) - Data: 00 00 00 00  returns 0x04 (0001ms, 0269ms total)
T37E8 004:715 JLINK_IsHalted()  returns FALSE (0001ms, 0270ms total)
T37E8 004:817 JLINK_IsHalted()  returns FALSE (0000ms, 0269ms total)
T37E8 004:918 JLINK_IsHalted()  returns FALSE (0000ms, 0269ms total)
T37E8 005:019 JLINK_IsHalted()  returns FALSE (0000ms, 0269ms total)
T37E8 005:120 JLINK_IsHalted()  returns FALSE (0001ms, 0270ms total)
T3F04 005:221 JLINK_ReadMemEx(0x48040100, 0x0008 Bytes, ..., Flags = 0x02000004) -- CPU_ReadMem(8 bytes @ 0x48040100) - Data: 00 00 00 00 00 00 00 00  returns 0x08 (0001ms, 0270ms total)
T3F04 005:222 JLINK_ReadMemEx(0x48040100, 0x0004 Bytes, ..., Flags = 0x02000004) -- CPU_ReadMem(4 bytes @ 0x48040100) - Data: 00 00 00 00  returns 0x04 (0000ms, 0270ms total)
